
T2610 000:095 SEGGER J-Link V6.16b Log File (0002ms, 0059ms total)
T2610 000:095 DLL Compiled: Jun  9 2017 18:03:30 (0002ms, 0059ms total)
T2610 000:095 Logging started @ 2018-03-05 16:28 (0002ms, 0059ms total)
T2610 000:097 JLINK_SetWarnOutHandler(...) (0000ms, 0059ms total)
T2610 000:097 JLINK_OpenEx(...)
Firmware: J-Link V9 compiled Jun  9 2017 17:27:29
Hardware: V9.40
S/N: 59425868
Feature(s): RDI, GDB, FlashDL, FlashBP, JFlash, RDDIWEBSRV Webserver running on local port 19080 (0031ms, 0090ms total)
T2610 000:097   returns O.K. (0031ms, 0090ms total)
T2610 000:128 JLINK_SetErrorOutHandler(...) (0000ms, 0090ms total)
T2610 000:128 JLINK_ExecCommand("ProjectFile = "E:\FangCunApply\Case\文本PLC一体机\SoftWare\TC_V1.0\Project\MDK-ARM(uV4)\JLinkSettings.ini"", ...).   returns 0x00 (0087ms, 0177ms total)
T2610 000:217 JLINK_ExecCommand("Device = NUC029LAN", ...). Device "NUC029LAN" selected.  returns 0x00 (0003ms, 0180ms total)
T2610 000:220 JLINK_ExecCommand("DisableConnectionTimeout", ...).   returns 0x01 (0000ms, 0180ms total)
T2610 000:220 JLINK_GetHardwareVersion()  returns 0x16F30 (0000ms, 0180ms total)
T2610 000:220 JLINK_GetDLLVersion()  returns 61602 (0000ms, 0180ms total)
T2610 000:220 JLINK_GetFirmwareString(...) (0000ms, 0180ms total)
T2610 000:227 JLINK_GetDLLVersion()  returns 61602 (0000ms, 0180ms total)
T2610 000:227 JLINK_GetCompileDateTime() (0000ms, 0180ms total)
T2610 000:228 JLINK_GetFirmwareString(...) (0000ms, 0180ms total)
T2610 000:230 JLINK_GetHardwareVersion()  returns 0x16F30 (0000ms, 0180ms total)
T2610 000:235 JLINK_TIF_Select(JLINKARM_TIF_SWD)  returns 0x00 (0004ms, 0184ms total)
T2610 000:239 JLINK_SetSpeed(10000) (0001ms, 0185ms total)
T2610 000:240 JLINK_GetId() >0x10B TIF>Found SW-DP with ID 0x0BB11477 >0x0D TIF> >0x28 TIF> >0x0D TIF> >0x28 TIF> >0x0D TIF> >0x28 TIF> >0x0D TIF> >0x28 TIF> >0x0D TIF> >0x21 TIF> >0x0D TIF> >0x28 TIF>Scanning APs, stopping at first AHB-AP found. >0x0D TIF> >0x28 TIF> >0x0D TIF> >0x21 TIF> >0x0D TIF> >0x21 TIF>AP[0] IDR: 0x04770021 (AHB-AP) >0x0D TIF> >0x28 TIF> >0x0D TIF> >0x21 TIF> >0x0D TIF> >0x21 TIF>AHB-AP ROM: 0xE00FF000 (Base addr. of first ROM table) >0x0D TIF> >0x28 TIF> >0x0D TIF> >0x28 TIF>
 >0x0D TIF> >0x28 TIF> >0x0D TIF> >0x21 TIF> >0x0D TIF> >0x21 TIF> >0x0D TIF> >0x28 TIF> >0x0D TIF> >0x21 TIF> >0x0D TIF> >0x21 TIF>CPUID reg: 0x410CC200. Implementer code: 0x41 (ARM)Found Cortex-M0 r0p0, Little endian. -- CPU_ReadMem(4 bytes @ 0xE000EDF0) -- CPU_WriteMem(4 bytes @ 0xE000EDF0) -- CPU_ReadMem(4 bytes @ 0xE0002000)FPUnit: 4 code (BP) slots and 0 literal slots -- CPU_ReadMem(4 bytes @ 0xE000EDFC) -- CPU_WriteMem(4 bytes @ 0xE000EDFC) -- CPU_ReadMem(4 bytes @ 0xE0001000)
 -- CPU_WriteMem(4 bytes @ 0xE0001000)CoreSight components:ROMTbl[0] @ E00FF000 -- CPU_ReadMem(16 bytes @ 0xE00FF000) -- CPU_ReadMem(16 bytes @ 0xE000EFF0) -- CPU_ReadMem(16 bytes @ 0xE000EFE0)ROMTbl[0][0]: E000E000, CID: B105E00D, PID: 000BB008 SCS -- CPU_ReadMem(16 bytes @ 0xE0001FF0) -- CPU_ReadMem(16 bytes @ 0xE0001FE0)ROMTbl[0][1]: E0001000, CID: B105E00D, PID: 000BB00A DWT -- CPU_ReadMem(16 bytes @ 0xE0002FF0) -- CPU_ReadMem(16 bytes @ 0xE0002FE0)
ROMTbl[0][2]: E0002000, CID: B105E00D, PID: 000BB00B FPB >0x0D TIF> >0x21 TIF>  returns 0x0BB11477 (0080ms, 0265ms total)
T2610 000:320 JLINK_GetDLLVersion()  returns 61602 (0000ms, 0265ms total)
T2610 000:320 JLINK_CORE_GetFound()  returns 0x60000FF (0000ms, 0265ms total)
T2610 000:320 JLINK_GetDebugInfo(0x100 = JLINKARM_ROM_TABLE_ADDR_INDEX) -- Value=0xE00FF000  returns 0x00 (0000ms, 0265ms total)
T2610 000:322 JLINK_ReadMem (0xE00FF000, 0x0020 Bytes, ...) -- CPU_ReadMem(32 bytes @ 0xE00FF000) - Data: 03 F0 F0 FF 03 20 F0 FF 03 30 F0 FF 00 00 00 00 ...  returns 0x00 (0001ms, 0266ms total)
T2610 000:323 JLINK_ReadMem (0xE000EFF0, 0x0010 Bytes, ...) -- CPU_ReadMem(16 bytes @ 0xE000EFF0) - Data: 0D 00 00 00 E0 00 00 00 05 00 00 00 B1 00 00 00  returns 0x00 (0001ms, 0267ms total)
T2610 000:324 JLINK_ReadMem (0xE000EFD0, 0x0020 Bytes, ...) -- CPU_ReadMem(32 bytes @ 0xE000EFD0) - Data: 04 00 00 00 00 00 00 00 00 00 00 00 00 00 00 00 ...  returns 0x00 (0001ms, 0268ms total)
T2610 000:325 JLINK_ReadMem (0xE0001FF0, 0x0010 Bytes, ...) -- CPU_ReadMem(16 bytes @ 0xE0001FF0) - Data: 0D 00 00 00 E0 00 00 00 05 00 00 00 B1 00 00 00  returns 0x00 (0001ms, 0269ms total)
T2610 000:326 JLINK_ReadMem (0xE0001FD0, 0x0020 Bytes, ...) -- CPU_ReadMem(32 bytes @ 0xE0001FD0) - Data: 04 00 00 00 00 00 00 00 00 00 00 00 00 00 00 00 ...  returns 0x00 (0001ms, 0270ms total)
T2610 000:327 JLINK_ReadMem (0xE0002FF0, 0x0010 Bytes, ...) -- CPU_ReadMem(16 bytes @ 0xE0002FF0) - Data: 0D 00 00 00 E0 00 00 00 05 00 00 00 B1 00 00 00  returns 0x00 (0001ms, 0271ms total)
T2610 000:328 JLINK_ReadMem (0xE0002FD0, 0x0020 Bytes, ...) -- CPU_ReadMem(32 bytes @ 0xE0002FD0) - Data: 04 00 00 00 00 00 00 00 00 00 00 00 00 00 00 00 ...  returns 0x00 (0001ms, 0272ms total)
T2610 000:329 JLINK_ReadMemU32(0xE000ED00, 0x0001 Items, ...) -- CPU_ReadMem(4 bytes @ 0xE000ED00) - Data: 00 C2 0C 41  returns 0x01 (0001ms, 0273ms total)
T2610 000:330 JLINK_SetResetType(JLINKARM_CM3_RESET_TYPE_NORMAL)  returns JLINKARM_CM3_RESET_TYPE_NORMAL (0000ms, 0273ms total)
T2610 000:330 JLINK_Reset() -- CPU is running -- CPU_WriteMem(4 bytes @ 0xE000EDF0) -- CPU is running -- CPU_WriteMem(4 bytes @ 0xE000EDFC) >0x35 TIF>Setting AIRCR.SYSRESETREQ -- CPU is running -- CPU_WriteMem(4 bytes @ 0xE000ED0C) >0x0D TIF> >0x28 TIF> -- CPU_ReadMem(4 bytes @ 0xE000ED0C) -- CPU_ReadMem(4 bytes @ 0xE000EDF0) -- CPU_ReadMem(4 bytes @ 0xE000EDF0) -- CPU_ReadMem(4 bytes @ 0xE000EDF0) -- CPU is running -- CPU_WriteMem(4 bytes @ 0xE000EDF0) -- CPU is running
 -- CPU_WriteMem(4 bytes @ 0xE000EDFC) -- CPU_ReadMem(4 bytes @ 0xE000EDF0) -- CPU_WriteMem(4 bytes @ 0xE0002000) -- CPU_ReadMem(4 bytes @ 0xE000EDFC) -- CPU_ReadMem(4 bytes @ 0xE0001000) -- CPU_WriteMem(4 bytes @ 0xE0001000) (0078ms, 0351ms total)
T2610 000:408 JLINK_Halt()  returns 0x00 (0000ms, 0351ms total)
T2610 000:408 JLINK_IsHalted()  returns TRUE (0000ms, 0351ms total)
T2610 000:408 JLINK_ReadMemU32(0xE000EDF0, 0x0001 Items, ...) -- CPU_ReadMem(4 bytes @ 0xE000EDF0) - Data: 03 00 03 00  returns 0x01 (0001ms, 0352ms total)
T2610 000:409 JLINK_WriteU32(0xE000EDF0, 0xA05F0003) -- CPU_WriteMem(4 bytes @ 0xE000EDF0)  returns 0x00 (0001ms, 0353ms total)
T2610 000:410 JLINK_WriteU32(0xE000EDFC, 0x01000000) -- CPU_WriteMem(4 bytes @ 0xE000EDFC)  returns 0x00 (0001ms, 0354ms total)
T2610 000:417 JLINK_GetHWStatus(...)  returns 0x00 (0001ms, 0355ms total)
T2610 000:422 JLINK_GetNumBPUnits(Type = 0xFFFFFF00)  returns 0x04 (0001ms, 0356ms total)
T2610 000:423 JLINK_GetNumBPUnits(Type = 0xF0)  returns 0x2000 (0000ms, 0356ms total)
T2610 000:423 JLINK_GetNumWPUnits()  returns 0x02 (0000ms, 0356ms total)
T2610 000:426 JLINK_GetSpeed()  returns 0x1770 (0000ms, 0356ms total)
T2610 000:429 JLINK_ReadMemU32(0xE000E004, 0x0001 Items, ...) -- CPU_ReadMem(4 bytes @ 0xE000E004) - Data: 00 00 00 00  returns 0x01 (0001ms, 0357ms total)
T2610 000:430 JLINK_Halt()  returns 0x00 (0000ms, 0357ms total)
T2610 000:430 JLINK_IsHalted()  returns TRUE (0000ms, 0357ms total)
T2610 000:432 JLINK_WriteMem(0x20000000, 0x0224 Bytes, ...) - Data: 00 BE 0A E0 0D 78 2D 06 68 40 08 24 40 00 00 D3 ... -- CPU_WriteMem(548 bytes @ 0x20000000)  returns 0x224 (0003ms, 0360ms total)
T2610 000:435 JLINK_WriteReg(R0, 0x00000000)  returns 0x00 (0000ms, 0360ms total)
T2610 000:435 JLINK_WriteReg(R1, 0x00B71B00)  returns 0x00 (0000ms, 0360ms total)
T2610 000:435 JLINK_WriteReg(R2, 0x00000001)  returns 0x00 (0000ms, 0360ms total)
T2610 000:435 JLINK_WriteReg(R3, 0x00000000)  returns 0x00 (0000ms, 0360ms total)
T2610 000:435 JLINK_WriteReg(R4, 0x00000000)  returns 0x00 (0000ms, 0360ms total)
T2610 000:435 JLINK_WriteReg(R5, 0x00000000)  returns 0x00 (0000ms, 0360ms total)
T2610 000:435 JLINK_WriteReg(R6, 0x00000000)  returns 0x00 (0000ms, 0360ms total)
T2610 000:435 JLINK_WriteReg(R7, 0x00000000)  returns 0x00 (0000ms, 0360ms total)
T2610 000:435 JLINK_WriteReg(R8, 0x00000000)  returns 0x00 (0000ms, 0360ms total)
T2610 000:435 JLINK_WriteReg(R9, 0x20000220)  returns 0x00 (0000ms, 0360ms total)
T2610 000:435 JLINK_WriteReg(R10, 0x00000000)  returns 0x00 (0000ms, 0360ms total)
T2610 000:435 JLINK_WriteReg(R11, 0x00000000)  returns 0x00 (0000ms, 0360ms total)
T2610 000:435 JLINK_WriteReg(R12, 0x00000000)  returns 0x00 (0000ms, 0360ms total)
T2610 000:435 JLINK_WriteReg(R13 (SP), 0x20001000)  returns 0x00 (0000ms, 0360ms total)
T2610 000:435 JLINK_WriteReg(R14, 0x20000001)  returns 0x00 (0000ms, 0360ms total)
T2610 000:435 JLINK_WriteReg(R15 (PC), 0x20000038)  returns 0x00 (0000ms, 0360ms total)
T2610 000:435 JLINK_WriteReg(XPSR, 0x01000000)  returns 0x00 (0000ms, 0360ms total)
T2610 000:435 JLINK_WriteReg(MSP, 0x20001000)  returns 0x00 (0000ms, 0360ms total)
T2610 000:435 JLINK_WriteReg(PSP, 0x20001000)  returns 0x00 (0000ms, 0360ms total)
T2610 000:435 JLINK_WriteReg(CFBP, 0x00000000)  returns 0x00 (0000ms, 0360ms total)
T2610 000:435 JLINK_SetBPEx(Addr = 0x20000000, Type = 0xFFFFFFF2) -- CPU_ReadMem(2 bytes @ 0x20000000)  returns 0x00000001 (0001ms, 0361ms total)
T2610 000:436 JLINK_Go() -- CPU_WriteMem(2 bytes @ 0x20000000) -- CPU_ReadMem(4 bytes @ 0xE0001000) -- CPU_WriteMem(4 bytes @ 0xE0001000) -- CPU_WriteMem(4 bytes @ 0xE0002008) -- CPU_WriteMem(4 bytes @ 0xE000200C) -- CPU_WriteMem(4 bytes @ 0xE0002010) -- CPU_WriteMem(4 bytes @ 0xE0002014) -- CPU_WriteMem(4 bytes @ 0xE0001004) (0007ms, 0368ms total)
T2610 000:443 JLINK_IsHalted() -- CPU_ReadMem(2 bytes @ 0x20000000)  returns TRUE (0004ms, 0372ms total)
T2610 000:447 JLINK_ReadReg(R15 (PC))  returns 0x20000000 (0000ms, 0368ms total)
T2610 000:447 JLINK_ClrBPEx(BPHandle = 0x00000001)  returns 0x00 (0000ms, 0368ms total)
T2610 000:447 JLINK_ReadReg(R0)  returns 0x00000000 (0000ms, 0368ms total)
T2610 000:447 JLINK_WriteReg(R0, 0x00000000)  returns 0x00 (0000ms, 0368ms total)
T2610 000:447 JLINK_WriteReg(R1, 0x00000200)  returns 0x00 (0000ms, 0368ms total)
T2610 000:447 JLINK_WriteReg(R2, 0x000000FF)  returns 0x00 (0000ms, 0368ms total)
T2610 000:447 JLINK_WriteReg(R3, 0x00000000)  returns 0x00 (0000ms, 0368ms total)
T2610 000:447 JLINK_WriteReg(R4, 0x00000000)  returns 0x00 (0000ms, 0368ms total)
T2610 000:447 JLINK_WriteReg(R5, 0x00000000)  returns 0x00 (0000ms, 0368ms total)
T2610 000:447 JLINK_WriteReg(R6, 0x00000000)  returns 0x00 (0000ms, 0368ms total)
T2610 000:447 JLINK_WriteReg(R7, 0x00000000)  returns 0x00 (0000ms, 0368ms total)
T2610 000:447 JLINK_WriteReg(R8, 0x00000000)  returns 0x00 (0000ms, 0368ms total)
T2610 000:447 JLINK_WriteReg(R9, 0x20000220)  returns 0x00 (0000ms, 0368ms total)
T2610 000:447 JLINK_WriteReg(R10, 0x00000000)  returns 0x00 (0000ms, 0368ms total)
T2610 000:447 JLINK_WriteReg(R11, 0x00000000)  returns 0x00 (0000ms, 0368ms total)
T2610 000:447 JLINK_WriteReg(R12, 0x00000000)  returns 0x00 (0000ms, 0368ms total)
T2610 000:447 JLINK_WriteReg(R13 (SP), 0x20001000)  returns 0x00 (0000ms, 0368ms total)
T2610 000:447 JLINK_WriteReg(R14, 0x20000001)  returns 0x00 (0000ms, 0368ms total)
T2610 000:447 JLINK_WriteReg(R15 (PC), 0x20000020)  returns 0x00 (0001ms, 0369ms total)
T2610 000:448 JLINK_WriteReg(XPSR, 0x01000000)  returns 0x00 (0000ms, 0369ms total)
T2610 000:448 JLINK_WriteReg(MSP, 0x20001000)  returns 0x00 (0000ms, 0369ms total)
T2610 000:448 JLINK_WriteReg(PSP, 0x20001000)  returns 0x00 (0000ms, 0369ms total)
T2610 000:448 JLINK_WriteReg(CFBP, 0x00000000)  returns 0x00 (0000ms, 0369ms total)
T2610 000:448 JLINK_SetBPEx(Addr = 0x20000000, Type = 0xFFFFFFF2)  returns 0x00000002 (0000ms, 0369ms total)
T2610 000:448 JLINK_Go() -- CPU_ReadMem(4 bytes @ 0xE0001000) -- CPU_WriteMem(4 bytes @ 0xE0001000) (0004ms, 0373ms total)
T2610 000:452 JLINK_IsHalted() -- CPU_ReadMem(2 bytes @ 0x20000000)  returns TRUE (0004ms, 0377ms total)
T2610 000:456 JLINK_ReadReg(R15 (PC))  returns 0x20000000 (0000ms, 0373ms total)
T2610 000:456 JLINK_ClrBPEx(BPHandle = 0x00000002)  returns 0x00 (0000ms, 0373ms total)
T2610 000:456 JLINK_ReadReg(R0)  returns 0x00000001 (0000ms, 0373ms total)
T2610 000:456 JLINK_WriteReg(R0, 0x00000000)  returns 0x00 (0000ms, 0373ms total)
T2610 000:456 JLINK_WriteReg(R1, 0x00000200)  returns 0x00 (0000ms, 0373ms total)
T2610 000:456 JLINK_WriteReg(R2, 0x000000FF)  returns 0x00 (0000ms, 0373ms total)
T2610 000:456 JLINK_WriteReg(R3, 0x00000000)  returns 0x00 (0000ms, 0373ms total)
T2610 000:456 JLINK_WriteReg(R4, 0x00000000)  returns 0x00 (0000ms, 0373ms total)
T2610 000:456 JLINK_WriteReg(R5, 0x00000000)  returns 0x00 (0000ms, 0373ms total)
T2610 000:456 JLINK_WriteReg(R6, 0x00000000)  returns 0x00 (0000ms, 0373ms total)
T2610 000:456 JLINK_WriteReg(R7, 0x00000000)  returns 0x00 (0000ms, 0373ms total)
T2610 000:456 JLINK_WriteReg(R8, 0x00000000)  returns 0x00 (0000ms, 0373ms total)
T2610 000:456 JLINK_WriteReg(R9, 0x20000220)  returns 0x00 (0000ms, 0373ms total)
T2610 000:456 JLINK_WriteReg(R10, 0x00000000)  returns 0x00 (0000ms, 0373ms total)
T2610 000:456 JLINK_WriteReg(R11, 0x00000000)  returns 0x00 (0000ms, 0373ms total)
T2610 000:456 JLINK_WriteReg(R12, 0x00000000)  returns 0x00 (0000ms, 0373ms total)
T2610 000:456 JLINK_WriteReg(R13 (SP), 0x20001000)  returns 0x00 (0000ms, 0373ms total)
T2610 000:456 JLINK_WriteReg(R14, 0x20000001)  returns 0x00 (0000ms, 0373ms total)
T2610 000:456 JLINK_WriteReg(R15 (PC), 0x200000DC)  returns 0x00 (0000ms, 0373ms total)
T2610 000:456 JLINK_WriteReg(XPSR, 0x01000000)  returns 0x00 (0000ms, 0373ms total)
T2610 000:456 JLINK_WriteReg(MSP, 0x20001000)  returns 0x00 (0000ms, 0373ms total)
T2610 000:456 JLINK_WriteReg(PSP, 0x20001000)  returns 0x00 (0000ms, 0373ms total)
T2610 000:456 JLINK_WriteReg(CFBP, 0x00000000)  returns 0x00 (0000ms, 0373ms total)
T2610 000:457 JLINK_SetBPEx(Addr = 0x20000000, Type = 0xFFFFFFF2)  returns 0x00000003 (0000ms, 0374ms total)
T2610 000:457 JLINK_Go() -- CPU_ReadMem(4 bytes @ 0xE0001000) -- CPU_WriteMem(4 bytes @ 0xE0001000) (0004ms, 0378ms total)
T2610 000:461 JLINK_IsHalted()  returns FALSE (0001ms, 0379ms total)
T2610 000:489 JLINK_IsHalted() -- CPU_ReadMem(2 bytes @ 0x20000000)  returns TRUE (0004ms, 0382ms total)
T2610 000:493 JLINK_ReadReg(R15 (PC))  returns 0x20000000 (0000ms, 0378ms total)
T2610 000:493 JLINK_ClrBPEx(BPHandle = 0x00000003)  returns 0x00 (0000ms, 0378ms total)
T2610 000:493 JLINK_ReadReg(R0)  returns 0x00000000 (0000ms, 0378ms total)
T2610 000:493 JLINK_WriteReg(R0, 0x00000200)  returns 0x00 (0000ms, 0378ms total)
T2610 000:493 JLINK_WriteReg(R1, 0x00000200)  returns 0x00 (0000ms, 0378ms total)
T2610 000:493 JLINK_WriteReg(R2, 0x000000FF)  returns 0x00 (0000ms, 0378ms total)
T2610 000:493 JLINK_WriteReg(R3, 0x00000000)  returns 0x00 (0000ms, 0378ms total)
T2610 000:493 JLINK_WriteReg(R4, 0x00000000)  returns 0x00 (0000ms, 0378ms total)
T2610 000:493 JLINK_WriteReg(R5, 0x00000000)  returns 0x00 (0000ms, 0378ms total)
T2610 000:493 JLINK_WriteReg(R6, 0x00000000)  returns 0x00 (0000ms, 0378ms total)
T2610 000:493 JLINK_WriteReg(R7, 0x00000000)  returns 0x00 (0000ms, 0378ms total)
T2610 000:493 JLINK_WriteReg(R8, 0x00000000)  returns 0x00 (0000ms, 0378ms total)
T2610 000:493 JLINK_WriteReg(R9, 0x20000220)  returns 0x00 (0000ms, 0378ms total)
T2610 000:493 JLINK_WriteReg(R10, 0x00000000)  returns 0x00 (0000ms, 0378ms total)
T2610 000:493 JLINK_WriteReg(R11, 0x00000000)  returns 0x00 (0000ms, 0378ms total)
T2610 000:493 JLINK_WriteReg(R12, 0x00000000)  returns 0x00 (0000ms, 0378ms total)
T2610 000:493 JLINK_WriteReg(R13 (SP), 0x20001000)  returns 0x00 (0001ms, 0379ms total)
T2610 000:494 JLINK_WriteReg(R14, 0x20000001)  returns 0x00 (0000ms, 0379ms total)
T2610 000:494 JLINK_WriteReg(R15 (PC), 0x20000020)  returns 0x00 (0000ms, 0379ms total)
T2610 000:494 JLINK_WriteReg(XPSR, 0x01000000)  returns 0x00 (0000ms, 0379ms total)
T2610 000:494 JLINK_WriteReg(MSP, 0x20001000)  returns 0x00 (0000ms, 0379ms total)
T2610 000:494 JLINK_WriteReg(PSP, 0x20001000)  returns 0x00 (0000ms, 0379ms total)
T2610 000:494 JLINK_WriteReg(CFBP, 0x00000000)  returns 0x00 (0000ms, 0379ms total)
T2610 000:494 JLINK_SetBPEx(Addr = 0x20000000, Type = 0xFFFFFFF2)  returns 0x00000004 (0000ms, 0379ms total)
T2610 000:494 JLINK_Go() -- CPU_ReadMem(4 bytes @ 0xE0001000) -- CPU_WriteMem(4 bytes @ 0xE0001000) (0004ms, 0383ms total)
T2610 000:498 JLINK_IsHalted() -- CPU_ReadMem(2 bytes @ 0x20000000)  returns TRUE (0004ms, 0387ms total)
T2610 000:502 JLINK_ReadReg(R15 (PC))  returns 0x20000000 (0000ms, 0383ms total)
T2610 000:502 JLINK_ClrBPEx(BPHandle = 0x00000004)  returns 0x00 (0000ms, 0383ms total)
T2610 000:502 JLINK_ReadReg(R0)  returns 0x00000001 (0000ms, 0383ms total)
T2610 000:502 JLINK_WriteReg(R0, 0x00000200)  returns 0x00 (0000ms, 0383ms total)
T2610 000:502 JLINK_WriteReg(R1, 0x00000200)  returns 0x00 (0000ms, 0383ms total)
T2610 000:502 JLINK_WriteReg(R2, 0x000000FF)  returns 0x00 (0000ms, 0383ms total)
T2610 000:502 JLINK_WriteReg(R3, 0x00000000)  returns 0x00 (0000ms, 0383ms total)
T2610 000:502 JLINK_WriteReg(R4, 0x00000000)  returns 0x00 (0000ms, 0383ms total)
T2610 000:502 JLINK_WriteReg(R5, 0x00000000)  returns 0x00 (0000ms, 0383ms total)
T2610 000:502 JLINK_WriteReg(R6, 0x00000000)  returns 0x00 (0000ms, 0383ms total)
T2610 000:502 JLINK_WriteReg(R7, 0x00000000)  returns 0x00 (0000ms, 0383ms total)
T2610 000:502 JLINK_WriteReg(R8, 0x00000000)  returns 0x00 (0000ms, 0383ms total)
T2610 000:502 JLINK_WriteReg(R9, 0x20000220)  returns 0x00 (0000ms, 0383ms total)
T2610 000:502 JLINK_WriteReg(R10, 0x00000000)  returns 0x00 (0000ms, 0383ms total)
T2610 000:502 JLINK_WriteReg(R11, 0x00000000)  returns 0x00 (0000ms, 0383ms total)
T2610 000:502 JLINK_WriteReg(R12, 0x00000000)  returns 0x00 (0000ms, 0383ms total)
T2610 000:502 JLINK_WriteReg(R13 (SP), 0x20001000)  returns 0x00 (0000ms, 0383ms total)
T2610 000:502 JLINK_WriteReg(R14, 0x20000001)  returns 0x00 (0000ms, 0383ms total)
T2610 000:502 JLINK_WriteReg(R15 (PC), 0x200000DC)  returns 0x00 (0001ms, 0384ms total)
T2610 000:503 JLINK_WriteReg(XPSR, 0x01000000)  returns 0x00 (0000ms, 0384ms total)
T2610 000:503 JLINK_WriteReg(MSP, 0x20001000)  returns 0x00 (0000ms, 0384ms total)
T2610 000:503 JLINK_WriteReg(PSP, 0x20001000)  returns 0x00 (0000ms, 0384ms total)
T2610 000:503 JLINK_WriteReg(CFBP, 0x00000000)  returns 0x00 (0000ms, 0384ms total)
T2610 000:503 JLINK_SetBPEx(Addr = 0x20000000, Type = 0xFFFFFFF2)  returns 0x00000005 (0000ms, 0384ms total)
T2610 000:503 JLINK_Go() -- CPU_ReadMem(4 bytes @ 0xE0001000) -- CPU_WriteMem(4 bytes @ 0xE0001000) (0004ms, 0388ms total)
T2610 000:507 JLINK_IsHalted()  returns FALSE (0001ms, 0389ms total)
T2610 000:511 JLINK_IsHalted() -- CPU_ReadMem(2 bytes @ 0x20000000)  returns TRUE (0004ms, 0392ms total)
T2610 000:515 JLINK_ReadReg(R15 (PC))  returns 0x20000000 (0000ms, 0388ms total)
T2610 000:515 JLINK_ClrBPEx(BPHandle = 0x00000005)  returns 0x00 (0000ms, 0388ms total)
T2610 000:515 JLINK_ReadReg(R0)  returns 0x00000000 (0000ms, 0388ms total)
T2610 000:516 JLINK_WriteReg(R0, 0x00000400)  returns 0x00 (0000ms, 0388ms total)
T2610 000:516 JLINK_WriteReg(R1, 0x00000200)  returns 0x00 (0000ms, 0388ms total)
T2610 000:516 JLINK_WriteReg(R2, 0x000000FF)  returns 0x00 (0000ms, 0388ms total)
T2610 000:516 JLINK_WriteReg(R3, 0x00000000)  returns 0x00 (0000ms, 0388ms total)
T2610 000:516 JLINK_WriteReg(R4, 0x00000000)  returns 0x00 (0000ms, 0388ms total)
T2610 000:516 JLINK_WriteReg(R5, 0x00000000)  returns 0x00 (0000ms, 0388ms total)
T2610 000:516 JLINK_WriteReg(R6, 0x00000000)  returns 0x00 (0000ms, 0388ms total)
T2610 000:516 JLINK_WriteReg(R7, 0x00000000)  returns 0x00 (0000ms, 0388ms total)
T2610 000:516 JLINK_WriteReg(R8, 0x00000000)  returns 0x00 (0000ms, 0388ms total)
T2610 000:516 JLINK_WriteReg(R9, 0x20000220)  returns 0x00 (0000ms, 0388ms total)
T2610 000:516 JLINK_WriteReg(R10, 0x00000000)  returns 0x00 (0000ms, 0388ms total)
T2610 000:516 JLINK_WriteReg(R11, 0x00000000)  returns 0x00 (0000ms, 0388ms total)
T2610 000:516 JLINK_WriteReg(R12, 0x00000000)  returns 0x00 (0000ms, 0388ms total)
T2610 000:516 JLINK_WriteReg(R13 (SP), 0x20001000)  returns 0x00 (0000ms, 0388ms total)
T2610 000:516 JLINK_WriteReg(R14, 0x20000001)  returns 0x00 (0000ms, 0388ms total)
T2610 000:516 JLINK_WriteReg(R15 (PC), 0x20000020)  returns 0x00 (0000ms, 0388ms total)
T2610 000:516 JLINK_WriteReg(XPSR, 0x01000000)  returns 0x00 (0000ms, 0388ms total)
T2610 000:516 JLINK_WriteReg(MSP, 0x20001000)  returns 0x00 (0000ms, 0388ms total)
T2610 000:516 JLINK_WriteReg(PSP, 0x20001000)  returns 0x00 (0000ms, 0388ms total)
T2610 000:516 JLINK_WriteReg(CFBP, 0x00000000)  returns 0x00 (0000ms, 0388ms total)
T2610 000:516 JLINK_SetBPEx(Addr = 0x20000000, Type = 0xFFFFFFF2)  returns 0x00000006 (0000ms, 0388ms total)
T2610 000:516 JLINK_Go() -- CPU_ReadMem(4 bytes @ 0xE0001000) -- CPU_WriteMem(4 bytes @ 0xE0001000) (0005ms, 0393ms total)
T2610 000:521 JLINK_IsHalted() -- CPU_ReadMem(2 bytes @ 0x20000000)  returns TRUE (0004ms, 0397ms total)
T2610 000:525 JLINK_ReadReg(R15 (PC))  returns 0x20000000 (0000ms, 0393ms total)
T2610 000:525 JLINK_ClrBPEx(BPHandle = 0x00000006)  returns 0x00 (0000ms, 0393ms total)
T2610 000:525 JLINK_ReadReg(R0)  returns 0x00000001 (0000ms, 0393ms total)
T2610 000:525 JLINK_WriteReg(R0, 0x00000400)  returns 0x00 (0000ms, 0393ms total)
T2610 000:525 JLINK_WriteReg(R1, 0x00000200)  returns 0x00 (0000ms, 0393ms total)
T2610 000:525 JLINK_WriteReg(R2, 0x000000FF)  returns 0x00 (0000ms, 0393ms total)
T2610 000:525 JLINK_WriteReg(R3, 0x00000000)  returns 0x00 (0000ms, 0393ms total)
T2610 000:525 JLINK_WriteReg(R4, 0x00000000)  returns 0x00 (0000ms, 0393ms total)
T2610 000:525 JLINK_WriteReg(R5, 0x00000000)  returns 0x00 (0000ms, 0393ms total)
T2610 000:525 JLINK_WriteReg(R6, 0x00000000)  returns 0x00 (0000ms, 0393ms total)
T2610 000:525 JLINK_WriteReg(R7, 0x00000000)  returns 0x00 (0000ms, 0393ms total)
T2610 000:525 JLINK_WriteReg(R8, 0x00000000)  returns 0x00 (0000ms, 0393ms total)
T2610 000:525 JLINK_WriteReg(R9, 0x20000220)  returns 0x00 (0000ms, 0393ms total)
T2610 000:525 JLINK_WriteReg(R10, 0x00000000)  returns 0x00 (0000ms, 0393ms total)
T2610 000:525 JLINK_WriteReg(R11, 0x00000000)  returns 0x00 (0000ms, 0393ms total)
T2610 000:525 JLINK_WriteReg(R12, 0x00000000)  returns 0x00 (0000ms, 0393ms total)
T2610 000:525 JLINK_WriteReg(R13 (SP), 0x20001000)  returns 0x00 (0000ms, 0393ms total)
T2610 000:525 JLINK_WriteReg(R14, 0x20000001)  returns 0x00 (0000ms, 0393ms total)
T2610 000:525 JLINK_WriteReg(R15 (PC), 0x200000DC)  returns 0x00 (0000ms, 0393ms total)
T2610 000:525 JLINK_WriteReg(XPSR, 0x01000000)  returns 0x00 (0000ms, 0393ms total)
T2610 000:525 JLINK_WriteReg(MSP, 0x20001000)  returns 0x00 (0000ms, 0393ms total)
T2610 000:525 JLINK_WriteReg(PSP, 0x20001000)  returns 0x00 (0000ms, 0393ms total)
T2610 000:525 JLINK_WriteReg(CFBP, 0x00000000)  returns 0x00 (0000ms, 0393ms total)
T2610 000:525 JLINK_SetBPEx(Addr = 0x20000000, Type = 0xFFFFFFF2)  returns 0x00000007 (0000ms, 0393ms total)
T2610 000:525 JLINK_Go() -- CPU_ReadMem(4 bytes @ 0xE0001000) -- CPU_WriteMem(4 bytes @ 0xE0001000) (0004ms, 0397ms total)
T2610 000:529 JLINK_IsHalted()  returns FALSE (0001ms, 0398ms total)
T2610 000:531 JLINK_IsHalted() -- CPU_ReadMem(2 bytes @ 0x20000000)  returns TRUE (0004ms, 0401ms total)
T2610 000:535 JLINK_ReadReg(R15 (PC))  returns 0x20000000 (0000ms, 0397ms total)
T2610 000:535 JLINK_ClrBPEx(BPHandle = 0x00000007)  returns 0x00 (0000ms, 0397ms total)
T2610 000:535 JLINK_ReadReg(R0)  returns 0x00000000 (0000ms, 0397ms total)
T2610 000:535 JLINK_WriteReg(R0, 0x00000600)  returns 0x00 (0000ms, 0397ms total)
T2610 000:535 JLINK_WriteReg(R1, 0x00000200)  returns 0x00 (0000ms, 0397ms total)
T2610 000:535 JLINK_WriteReg(R2, 0x000000FF)  returns 0x00 (0000ms, 0397ms total)
T2610 000:535 JLINK_WriteReg(R3, 0x00000000)  returns 0x00 (0000ms, 0397ms total)
T2610 000:535 JLINK_WriteReg(R4, 0x00000000)  returns 0x00 (0000ms, 0397ms total)
T2610 000:535 JLINK_WriteReg(R5, 0x00000000)  returns 0x00 (0000ms, 0397ms total)
T2610 000:535 JLINK_WriteReg(R6, 0x00000000)  returns 0x00 (0000ms, 0397ms total)
T2610 000:535 JLINK_WriteReg(R7, 0x00000000)  returns 0x00 (0000ms, 0397ms total)
T2610 000:535 JLINK_WriteReg(R8, 0x00000000)  returns 0x00 (0000ms, 0397ms total)
T2610 000:535 JLINK_WriteReg(R9, 0x20000220)  returns 0x00 (0000ms, 0397ms total)
T2610 000:535 JLINK_WriteReg(R10, 0x00000000)  returns 0x00 (0000ms, 0397ms total)
T2610 000:535 JLINK_WriteReg(R11, 0x00000000)  returns 0x00 (0000ms, 0397ms total)
T2610 000:535 JLINK_WriteReg(R12, 0x00000000)  returns 0x00 (0000ms, 0397ms total)
T2610 000:535 JLINK_WriteReg(R13 (SP), 0x20001000)  returns 0x00 (0000ms, 0397ms total)
T2610 000:535 JLINK_WriteReg(R14, 0x20000001)  returns 0x00 (0001ms, 0398ms total)
T2610 000:536 JLINK_WriteReg(R15 (PC), 0x20000020)  returns 0x00 (0000ms, 0398ms total)
T2610 000:536 JLINK_WriteReg(XPSR, 0x01000000)  returns 0x00 (0000ms, 0398ms total)
T2610 000:536 JLINK_WriteReg(MSP, 0x20001000)  returns 0x00 (0000ms, 0398ms total)
T2610 000:536 JLINK_WriteReg(PSP, 0x20001000)  returns 0x00 (0000ms, 0398ms total)
T2610 000:536 JLINK_WriteReg(CFBP, 0x00000000)  returns 0x00 (0000ms, 0398ms total)
T2610 000:536 JLINK_SetBPEx(Addr = 0x20000000, Type = 0xFFFFFFF2)  returns 0x00000008 (0000ms, 0398ms total)
T2610 000:536 JLINK_Go() -- CPU_ReadMem(4 bytes @ 0xE0001000) -- CPU_WriteMem(4 bytes @ 0xE0001000) (0004ms, 0402ms total)
T2610 000:540 JLINK_IsHalted() -- CPU_ReadMem(2 bytes @ 0x20000000)  returns TRUE (0004ms, 0406ms total)
T2610 000:544 JLINK_ReadReg(R15 (PC))  returns 0x20000000 (0000ms, 0402ms total)
T2610 000:544 JLINK_ClrBPEx(BPHandle = 0x00000008)  returns 0x00 (0000ms, 0402ms total)
T2610 000:544 JLINK_ReadReg(R0)  returns 0x00000001 (0000ms, 0402ms total)
T2610 000:544 JLINK_WriteReg(R0, 0x00000600)  returns 0x00 (0000ms, 0402ms total)
T2610 000:544 JLINK_WriteReg(R1, 0x00000200)  returns 0x00 (0000ms, 0402ms total)
T2610 000:544 JLINK_WriteReg(R2, 0x000000FF)  returns 0x00 (0000ms, 0402ms total)
T2610 000:544 JLINK_WriteReg(R3, 0x00000000)  returns 0x00 (0000ms, 0402ms total)
T2610 000:544 JLINK_WriteReg(R4, 0x00000000)  returns 0x00 (0000ms, 0402ms total)
T2610 000:544 JLINK_WriteReg(R5, 0x00000000)  returns 0x00 (0000ms, 0402ms total)
T2610 000:544 JLINK_WriteReg(R6, 0x00000000)  returns 0x00 (0000ms, 0402ms total)
T2610 000:544 JLINK_WriteReg(R7, 0x00000000)  returns 0x00 (0000ms, 0402ms total)
T2610 000:544 JLINK_WriteReg(R8, 0x00000000)  returns 0x00 (0000ms, 0402ms total)
T2610 000:544 JLINK_WriteReg(R9, 0x20000220)  returns 0x00 (0000ms, 0402ms total)
T2610 000:544 JLINK_WriteReg(R10, 0x00000000)  returns 0x00 (0000ms, 0402ms total)
T2610 000:544 JLINK_WriteReg(R11, 0x00000000)  returns 0x00 (0000ms, 0402ms total)
T2610 000:544 JLINK_WriteReg(R12, 0x00000000)  returns 0x00 (0000ms, 0402ms total)
T2610 000:544 JLINK_WriteReg(R13 (SP), 0x20001000)  returns 0x00 (0000ms, 0402ms total)
T2610 000:544 JLINK_WriteReg(R14, 0x20000001)  returns 0x00 (0000ms, 0402ms total)
T2610 000:544 JLINK_WriteReg(R15 (PC), 0x200000DC)  returns 0x00 (0000ms, 0402ms total)
T2610 000:544 JLINK_WriteReg(XPSR, 0x01000000)  returns 0x00 (0001ms, 0403ms total)
T2610 000:545 JLINK_WriteReg(MSP, 0x20001000)  returns 0x00 (0000ms, 0403ms total)
T2610 000:545 JLINK_WriteReg(PSP, 0x20001000)  returns 0x00 (0000ms, 0403ms total)
T2610 000:545 JLINK_WriteReg(CFBP, 0x00000000)  returns 0x00 (0000ms, 0403ms total)
T2610 000:545 JLINK_SetBPEx(Addr = 0x20000000, Type = 0xFFFFFFF2)  returns 0x00000009 (0000ms, 0403ms total)
T2610 000:545 JLINK_Go() -- CPU_ReadMem(4 bytes @ 0xE0001000) -- CPU_WriteMem(4 bytes @ 0xE0001000) (0004ms, 0407ms total)
T2610 000:549 JLINK_IsHalted()  returns FALSE (0001ms, 0408ms total)
T2610 000:552 JLINK_IsHalted() -- CPU_ReadMem(2 bytes @ 0x20000000)  returns TRUE (0004ms, 0411ms total)
T2610 000:556 JLINK_ReadReg(R15 (PC))  returns 0x20000000 (0000ms, 0407ms total)
T2610 000:556 JLINK_ClrBPEx(BPHandle = 0x00000009)  returns 0x00 (0000ms, 0407ms total)
T2610 000:556 JLINK_ReadReg(R0)  returns 0x00000000 (0000ms, 0407ms total)
T2610 000:556 JLINK_WriteReg(R0, 0x00000800)  returns 0x00 (0000ms, 0407ms total)
T2610 000:556 JLINK_WriteReg(R1, 0x00000200)  returns 0x00 (0000ms, 0407ms total)
T2610 000:556 JLINK_WriteReg(R2, 0x000000FF)  returns 0x00 (0000ms, 0407ms total)
T2610 000:556 JLINK_WriteReg(R3, 0x00000000)  returns 0x00 (0000ms, 0407ms total)
T2610 000:556 JLINK_WriteReg(R4, 0x00000000)  returns 0x00 (0000ms, 0407ms total)
T2610 000:556 JLINK_WriteReg(R5, 0x00000000)  returns 0x00 (0000ms, 0407ms total)
T2610 000:556 JLINK_WriteReg(R6, 0x00000000)  returns 0x00 (0000ms, 0407ms total)
T2610 000:556 JLINK_WriteReg(R7, 0x00000000)  returns 0x00 (0000ms, 0407ms total)
T2610 000:556 JLINK_WriteReg(R8, 0x00000000)  returns 0x00 (0000ms, 0407ms total)
T2610 000:556 JLINK_WriteReg(R9, 0x20000220)  returns 0x00 (0000ms, 0407ms total)
T2610 000:556 JLINK_WriteReg(R10, 0x00000000)  returns 0x00 (0000ms, 0407ms total)
T2610 000:556 JLINK_WriteReg(R11, 0x00000000)  returns 0x00 (0001ms, 0408ms total)
T2610 000:557 JLINK_WriteReg(R12, 0x00000000)  returns 0x00 (0000ms, 0408ms total)
T2610 000:557 JLINK_WriteReg(R13 (SP), 0x20001000)  returns 0x00 (0000ms, 0408ms total)
T2610 000:557 JLINK_WriteReg(R14, 0x20000001)  returns 0x00 (0000ms, 0408ms total)
T2610 000:557 JLINK_WriteReg(R15 (PC), 0x20000020)  returns 0x00 (0000ms, 0408ms total)
T2610 000:557 JLINK_WriteReg(XPSR, 0x01000000)  returns 0x00 (0000ms, 0408ms total)
T2610 000:557 JLINK_WriteReg(MSP, 0x20001000)  returns 0x00 (0000ms, 0408ms total)
T2610 000:557 JLINK_WriteReg(PSP, 0x20001000)  returns 0x00 (0000ms, 0408ms total)
T2610 000:557 JLINK_WriteReg(CFBP, 0x00000000)  returns 0x00 (0000ms, 0408ms total)
T2610 000:557 JLINK_SetBPEx(Addr = 0x20000000, Type = 0xFFFFFFF2)  returns 0x0000000A (0000ms, 0408ms total)
T2610 000:557 JLINK_Go() -- CPU_ReadMem(4 bytes @ 0xE0001000) -- CPU_WriteMem(4 bytes @ 0xE0001000) (0004ms, 0412ms total)
T2610 000:561 JLINK_IsHalted() -- CPU_ReadMem(2 bytes @ 0x20000000)  returns TRUE (0004ms, 0416ms total)
T2610 000:565 JLINK_ReadReg(R15 (PC))  returns 0x20000000 (0000ms, 0412ms total)
T2610 000:565 JLINK_ClrBPEx(BPHandle = 0x0000000A)  returns 0x00 (0000ms, 0412ms total)
T2610 000:565 JLINK_ReadReg(R0)  returns 0x00000001 (0000ms, 0412ms total)
T2610 000:565 JLINK_WriteReg(R0, 0x00000800)  returns 0x00 (0000ms, 0412ms total)
T2610 000:565 JLINK_WriteReg(R1, 0x00000200)  returns 0x00 (0000ms, 0412ms total)
T2610 000:565 JLINK_WriteReg(R2, 0x000000FF)  returns 0x00 (0000ms, 0412ms total)
T2610 000:565 JLINK_WriteReg(R3, 0x00000000)  returns 0x00 (0000ms, 0412ms total)
T2610 000:565 JLINK_WriteReg(R4, 0x00000000)  returns 0x00 (0000ms, 0412ms total)
T2610 000:565 JLINK_WriteReg(R5, 0x00000000)  returns 0x00 (0000ms, 0412ms total)
T2610 000:565 JLINK_WriteReg(R6, 0x00000000)  returns 0x00 (0000ms, 0412ms total)
T2610 000:565 JLINK_WriteReg(R7, 0x00000000)  returns 0x00 (0000ms, 0412ms total)
T2610 000:565 JLINK_WriteReg(R8, 0x00000000)  returns 0x00 (0000ms, 0412ms total)
T2610 000:565 JLINK_WriteReg(R9, 0x20000220)  returns 0x00 (0000ms, 0412ms total)
T2610 000:565 JLINK_WriteReg(R10, 0x00000000)  returns 0x00 (0000ms, 0412ms total)
T2610 000:565 JLINK_WriteReg(R11, 0x00000000)  returns 0x00 (0000ms, 0412ms total)
T2610 000:565 JLINK_WriteReg(R12, 0x00000000)  returns 0x00 (0000ms, 0412ms total)
T2610 000:565 JLINK_WriteReg(R13 (SP), 0x20001000)  returns 0x00 (0000ms, 0412ms total)
T2610 000:565 JLINK_WriteReg(R14, 0x20000001)  returns 0x00 (0001ms, 0413ms total)
T2610 000:566 JLINK_WriteReg(R15 (PC), 0x200000DC)  returns 0x00 (0000ms, 0413ms total)
T2610 000:566 JLINK_WriteReg(XPSR, 0x01000000)  returns 0x00 (0000ms, 0413ms total)
T2610 000:566 JLINK_WriteReg(MSP, 0x20001000)  returns 0x00 (0000ms, 0413ms total)
T2610 000:566 JLINK_WriteReg(PSP, 0x20001000)  returns 0x00 (0000ms, 0413ms total)
T2610 000:566 JLINK_WriteReg(CFBP, 0x00000000)  returns 0x00 (0000ms, 0413ms total)
T2610 000:566 JLINK_SetBPEx(Addr = 0x20000000, Type = 0xFFFFFFF2)  returns 0x0000000B (0000ms, 0413ms total)
T2610 000:566 JLINK_Go() -- CPU_ReadMem(4 bytes @ 0xE0001000) -- CPU_WriteMem(4 bytes @ 0xE0001000) (0004ms, 0417ms total)
T2610 000:570 JLINK_IsHalted()  returns FALSE (0001ms, 0418ms total)
T2610 000:572 JLINK_IsHalted() -- CPU_ReadMem(2 bytes @ 0x20000000)  returns TRUE (0003ms, 0420ms total)
T2610 000:575 JLINK_ReadReg(R15 (PC))  returns 0x20000000 (0000ms, 0417ms total)
T2610 000:575 JLINK_ClrBPEx(BPHandle = 0x0000000B)  returns 0x00 (0000ms, 0417ms total)
T2610 000:575 JLINK_ReadReg(R0)  returns 0x00000000 (0000ms, 0417ms total)
T2610 000:576 JLINK_WriteReg(R0, 0x00000A00)  returns 0x00 (0000ms, 0417ms total)
T2610 000:576 JLINK_WriteReg(R1, 0x00000200)  returns 0x00 (0000ms, 0417ms total)
T2610 000:576 JLINK_WriteReg(R2, 0x000000FF)  returns 0x00 (0000ms, 0417ms total)
T2610 000:576 JLINK_WriteReg(R3, 0x00000000)  returns 0x00 (0000ms, 0417ms total)
T2610 000:576 JLINK_WriteReg(R4, 0x00000000)  returns 0x00 (0000ms, 0417ms total)
T2610 000:576 JLINK_WriteReg(R5, 0x00000000)  returns 0x00 (0000ms, 0417ms total)
T2610 000:576 JLINK_WriteReg(R6, 0x00000000)  returns 0x00 (0000ms, 0417ms total)
T2610 000:576 JLINK_WriteReg(R7, 0x00000000)  returns 0x00 (0000ms, 0417ms total)
T2610 000:576 JLINK_WriteReg(R8, 0x00000000)  returns 0x00 (0000ms, 0417ms total)
T2610 000:576 JLINK_WriteReg(R9, 0x20000220)  returns 0x00 (0000ms, 0417ms total)
T2610 000:576 JLINK_WriteReg(R10, 0x00000000)  returns 0x00 (0000ms, 0417ms total)
T2610 000:576 JLINK_WriteReg(R11, 0x00000000)  returns 0x00 (0000ms, 0417ms total)
T2610 000:576 JLINK_WriteReg(R12, 0x00000000)  returns 0x00 (0000ms, 0417ms total)
T2610 000:576 JLINK_WriteReg(R13 (SP), 0x20001000)  returns 0x00 (0000ms, 0417ms total)
T2610 000:576 JLINK_WriteReg(R14, 0x20000001)  returns 0x00 (0000ms, 0417ms total)
T2610 000:576 JLINK_WriteReg(R15 (PC), 0x20000020)  returns 0x00 (0000ms, 0417ms total)
T2610 000:576 JLINK_WriteReg(XPSR, 0x01000000)  returns 0x00 (0000ms, 0417ms total)
T2610 000:576 JLINK_WriteReg(MSP, 0x20001000)  returns 0x00 (0000ms, 0417ms total)
T2610 000:576 JLINK_WriteReg(PSP, 0x20001000)  returns 0x00 (0000ms, 0417ms total)
T2610 000:576 JLINK_WriteReg(CFBP, 0x00000000)  returns 0x00 (0000ms, 0417ms total)
T2610 000:576 JLINK_SetBPEx(Addr = 0x20000000, Type = 0xFFFFFFF2)  returns 0x0000000C (0000ms, 0417ms total)
T2610 000:576 JLINK_Go() -- CPU_ReadMem(4 bytes @ 0xE0001000) -- CPU_WriteMem(4 bytes @ 0xE0001000) (0004ms, 0421ms total)
T2610 000:580 JLINK_IsHalted() -- CPU_ReadMem(2 bytes @ 0x20000000)  returns TRUE (0004ms, 0425ms total)
T2610 000:584 JLINK_ReadReg(R15 (PC))  returns 0x20000000 (0000ms, 0421ms total)
T2610 000:584 JLINK_ClrBPEx(BPHandle = 0x0000000C)  returns 0x00 (0000ms, 0421ms total)
T2610 000:584 JLINK_ReadReg(R0)  returns 0x00000001 (0000ms, 0421ms total)
T2610 000:584 JLINK_WriteReg(R0, 0x00000A00)  returns 0x00 (0000ms, 0421ms total)
T2610 000:584 JLINK_WriteReg(R1, 0x00000200)  returns 0x00 (0001ms, 0422ms total)
T2610 000:585 JLINK_WriteReg(R2, 0x000000FF)  returns 0x00 (0000ms, 0422ms total)
T2610 000:585 JLINK_WriteReg(R3, 0x00000000)  returns 0x00 (0000ms, 0422ms total)
T2610 000:585 JLINK_WriteReg(R4, 0x00000000)  returns 0x00 (0000ms, 0422ms total)
T2610 000:585 JLINK_WriteReg(R5, 0x00000000)  returns 0x00 (0000ms, 0422ms total)
T2610 000:585 JLINK_WriteReg(R6, 0x00000000)  returns 0x00 (0000ms, 0422ms total)
T2610 000:585 JLINK_WriteReg(R7, 0x00000000)  returns 0x00 (0000ms, 0422ms total)
T2610 000:585 JLINK_WriteReg(R8, 0x00000000)  returns 0x00 (0000ms, 0422ms total)
T2610 000:585 JLINK_WriteReg(R9, 0x20000220)  returns 0x00 (0000ms, 0422ms total)
T2610 000:585 JLINK_WriteReg(R10, 0x00000000)  returns 0x00 (0000ms, 0422ms total)
T2610 000:585 JLINK_WriteReg(R11, 0x00000000)  returns 0x00 (0000ms, 0422ms total)
T2610 000:585 JLINK_WriteReg(R12, 0x00000000)  returns 0x00 (0000ms, 0422ms total)
T2610 000:585 JLINK_WriteReg(R13 (SP), 0x20001000)  returns 0x00 (0000ms, 0422ms total)
T2610 000:585 JLINK_WriteReg(R14, 0x20000001)  returns 0x00 (0000ms, 0422ms total)
T2610 000:585 JLINK_WriteReg(R15 (PC), 0x200000DC)  returns 0x00 (0000ms, 0422ms total)
T2610 000:585 JLINK_WriteReg(XPSR, 0x01000000)  returns 0x00 (0000ms, 0422ms total)
T2610 000:585 JLINK_WriteReg(MSP, 0x20001000)  returns 0x00 (0000ms, 0422ms total)
T2610 000:585 JLINK_WriteReg(PSP, 0x20001000)  returns 0x00 (0000ms, 0422ms total)
T2610 000:585 JLINK_WriteReg(CFBP, 0x00000000)  returns 0x00 (0000ms, 0422ms total)
T2610 000:585 JLINK_SetBPEx(Addr = 0x20000000, Type = 0xFFFFFFF2)  returns 0x0000000D (0000ms, 0422ms total)
T2610 000:585 JLINK_Go() -- CPU_ReadMem(4 bytes @ 0xE0001000) -- CPU_WriteMem(4 bytes @ 0xE0001000) (0003ms, 0425ms total)
T2610 000:588 JLINK_IsHalted()  returns FALSE (0001ms, 0426ms total)
T2610 000:599 JLINK_IsHalted() -- CPU_ReadMem(2 bytes @ 0x20000000)  returns TRUE (0004ms, 0429ms total)
T2610 000:603 JLINK_ReadReg(R15 (PC))  returns 0x20000000 (0000ms, 0425ms total)
T2610 000:603 JLINK_ClrBPEx(BPHandle = 0x0000000D)  returns 0x00 (0000ms, 0425ms total)
T2610 000:603 JLINK_ReadReg(R0)  returns 0x00000000 (0000ms, 0425ms total)
T2610 000:603 JLINK_WriteReg(R0, 0x00000C00)  returns 0x00 (0000ms, 0425ms total)
T2610 000:603 JLINK_WriteReg(R1, 0x00000200)  returns 0x00 (0000ms, 0425ms total)
T2610 000:603 JLINK_WriteReg(R2, 0x000000FF)  returns 0x00 (0000ms, 0425ms total)
T2610 000:603 JLINK_WriteReg(R3, 0x00000000)  returns 0x00 (0000ms, 0425ms total)
T2610 000:603 JLINK_WriteReg(R4, 0x00000000)  returns 0x00 (0000ms, 0425ms total)
T2610 000:603 JLINK_WriteReg(R5, 0x00000000)  returns 0x00 (0000ms, 0425ms total)
T2610 000:603 JLINK_WriteReg(R6, 0x00000000)  returns 0x00 (0000ms, 0425ms total)
T2610 000:603 JLINK_WriteReg(R7, 0x00000000)  returns 0x00 (0000ms, 0425ms total)
T2610 000:603 JLINK_WriteReg(R8, 0x00000000)  returns 0x00 (0000ms, 0425ms total)
T2610 000:603 JLINK_WriteReg(R9, 0x20000220)  returns 0x00 (0001ms, 0426ms total)
T2610 000:604 JLINK_WriteReg(R10, 0x00000000)  returns 0x00 (0000ms, 0426ms total)
T2610 000:604 JLINK_WriteReg(R11, 0x00000000)  returns 0x00 (0000ms, 0426ms total)
T2610 000:604 JLINK_WriteReg(R12, 0x00000000)  returns 0x00 (0000ms, 0426ms total)
T2610 000:604 JLINK_WriteReg(R13 (SP), 0x20001000)  returns 0x00 (0000ms, 0426ms total)
T2610 000:604 JLINK_WriteReg(R14, 0x20000001)  returns 0x00 (0000ms, 0426ms total)
T2610 000:604 JLINK_WriteReg(R15 (PC), 0x20000020)  returns 0x00 (0000ms, 0426ms total)
T2610 000:604 JLINK_WriteReg(XPSR, 0x01000000)  returns 0x00 (0000ms, 0426ms total)
T2610 000:604 JLINK_WriteReg(MSP, 0x20001000)  returns 0x00 (0000ms, 0426ms total)
T2610 000:604 JLINK_WriteReg(PSP, 0x20001000)  returns 0x00 (0000ms, 0426ms total)
T2610 000:604 JLINK_WriteReg(CFBP, 0x00000000)  returns 0x00 (0000ms, 0426ms total)
T2610 000:604 JLINK_SetBPEx(Addr = 0x20000000, Type = 0xFFFFFFF2)  returns 0x0000000E (0000ms, 0426ms total)
T2610 000:604 JLINK_Go() -- CPU_ReadMem(4 bytes @ 0xE0001000) -- CPU_WriteMem(4 bytes @ 0xE0001000) (0004ms, 0430ms total)
T2610 000:608 JLINK_IsHalted() -- CPU_ReadMem(2 bytes @ 0x20000000)  returns TRUE (0004ms, 0434ms total)
T2610 000:612 JLINK_ReadReg(R15 (PC))  returns 0x20000000 (0000ms, 0430ms total)
T2610 000:612 JLINK_ClrBPEx(BPHandle = 0x0000000E)  returns 0x00 (0000ms, 0430ms total)
T2610 000:612 JLINK_ReadReg(R0)  returns 0x00000001 (0000ms, 0430ms total)
T2610 000:612 JLINK_WriteReg(R0, 0x00000C00)  returns 0x00 (0000ms, 0430ms total)
T2610 000:612 JLINK_WriteReg(R1, 0x00000200)  returns 0x00 (0000ms, 0430ms total)
T2610 000:612 JLINK_WriteReg(R2, 0x000000FF)  returns 0x00 (0000ms, 0430ms total)
T2610 000:612 JLINK_WriteReg(R3, 0x00000000)  returns 0x00 (0000ms, 0430ms total)
T2610 000:612 JLINK_WriteReg(R4, 0x00000000)  returns 0x00 (0000ms, 0430ms total)
T2610 000:612 JLINK_WriteReg(R5, 0x00000000)  returns 0x00 (0000ms, 0430ms total)
T2610 000:612 JLINK_WriteReg(R6, 0x00000000)  returns 0x00 (0000ms, 0430ms total)
T2610 000:612 JLINK_WriteReg(R7, 0x00000000)  returns 0x00 (0000ms, 0430ms total)
T2610 000:612 JLINK_WriteReg(R8, 0x00000000)  returns 0x00 (0000ms, 0430ms total)
T2610 000:612 JLINK_WriteReg(R9, 0x20000220)  returns 0x00 (0000ms, 0430ms total)
T2610 000:612 JLINK_WriteReg(R10, 0x00000000)  returns 0x00 (0000ms, 0430ms total)
T2610 000:612 JLINK_WriteReg(R11, 0x00000000)  returns 0x00 (0000ms, 0430ms total)
T2610 000:612 JLINK_WriteReg(R12, 0x00000000)  returns 0x00 (0001ms, 0431ms total)
T2610 000:613 JLINK_WriteReg(R13 (SP), 0x20001000)  returns 0x00 (0000ms, 0431ms total)
T2610 000:613 JLINK_WriteReg(R14, 0x20000001)  returns 0x00 (0000ms, 0431ms total)
T2610 000:613 JLINK_WriteReg(R15 (PC), 0x200000DC)  returns 0x00 (0000ms, 0431ms total)
T2610 000:613 JLINK_WriteReg(XPSR, 0x01000000)  returns 0x00 (0000ms, 0431ms total)
T2610 000:613 JLINK_WriteReg(MSP, 0x20001000)  returns 0x00 (0000ms, 0431ms total)
T2610 000:613 JLINK_WriteReg(PSP, 0x20001000)  returns 0x00 (0000ms, 0431ms total)
T2610 000:613 JLINK_WriteReg(CFBP, 0x00000000)  returns 0x00 (0000ms, 0431ms total)
T2610 000:613 JLINK_SetBPEx(Addr = 0x20000000, Type = 0xFFFFFFF2)  returns 0x0000000F (0000ms, 0431ms total)
T2610 000:613 JLINK_Go() -- CPU_ReadMem(4 bytes @ 0xE0001000) -- CPU_WriteMem(4 bytes @ 0xE0001000) (0003ms, 0434ms total)
T2610 000:616 JLINK_IsHalted()  returns FALSE (0001ms, 0435ms total)
T2610 000:619 JLINK_IsHalted() -- CPU_ReadMem(2 bytes @ 0x20000000)  returns TRUE (0004ms, 0438ms total)
T2610 000:623 JLINK_ReadReg(R15 (PC))  returns 0x20000000 (0000ms, 0434ms total)
T2610 000:623 JLINK_ClrBPEx(BPHandle = 0x0000000F)  returns 0x00 (0000ms, 0434ms total)
T2610 000:623 JLINK_ReadReg(R0)  returns 0x00000000 (0000ms, 0434ms total)
T2610 000:623 JLINK_WriteReg(R0, 0x00000E00)  returns 0x00 (0000ms, 0434ms total)
T2610 000:623 JLINK_WriteReg(R1, 0x00000200)  returns 0x00 (0000ms, 0434ms total)
T2610 000:623 JLINK_WriteReg(R2, 0x000000FF)  returns 0x00 (0000ms, 0434ms total)
T2610 000:623 JLINK_WriteReg(R3, 0x00000000)  returns 0x00 (0000ms, 0434ms total)
T2610 000:623 JLINK_WriteReg(R4, 0x00000000)  returns 0x00 (0000ms, 0434ms total)
T2610 000:623 JLINK_WriteReg(R5, 0x00000000)  returns 0x00 (0000ms, 0434ms total)
T2610 000:623 JLINK_WriteReg(R6, 0x00000000)  returns 0x00 (0000ms, 0434ms total)
T2610 000:623 JLINK_WriteReg(R7, 0x00000000)  returns 0x00 (0000ms, 0434ms total)
T2610 000:623 JLINK_WriteReg(R8, 0x00000000)  returns 0x00 (0000ms, 0434ms total)
T2610 000:623 JLINK_WriteReg(R9, 0x20000220)  returns 0x00 (0000ms, 0434ms total)
T2610 000:623 JLINK_WriteReg(R10, 0x00000000)  returns 0x00 (0000ms, 0434ms total)
T2610 000:623 JLINK_WriteReg(R11, 0x00000000)  returns 0x00 (0000ms, 0434ms total)
T2610 000:623 JLINK_WriteReg(R12, 0x00000000)  returns 0x00 (0000ms, 0434ms total)
T2610 000:623 JLINK_WriteReg(R13 (SP), 0x20001000)  returns 0x00 (0000ms, 0434ms total)
T2610 000:623 JLINK_WriteReg(R14, 0x20000001)  returns 0x00 (0000ms, 0434ms total)
T2610 000:624 JLINK_WriteReg(R15 (PC), 0x20000020)  returns 0x00 (0000ms, 0435ms total)
T2610 000:624 JLINK_WriteReg(XPSR, 0x01000000)  returns 0x00 (0000ms, 0435ms total)
T2610 000:624 JLINK_WriteReg(MSP, 0x20001000)  returns 0x00 (0000ms, 0435ms total)
T2610 000:624 JLINK_WriteReg(PSP, 0x20001000)  returns 0x00 (0000ms, 0435ms total)
T2610 000:624 JLINK_WriteReg(CFBP, 0x00000000)  returns 0x00 (0000ms, 0435ms total)
T2610 000:624 JLINK_SetBPEx(Addr = 0x20000000, Type = 0xFFFFFFF2)  returns 0x00000010 (0000ms, 0435ms total)
T2610 000:624 JLINK_Go() -- CPU_ReadMem(4 bytes @ 0xE0001000) -- CPU_WriteMem(4 bytes @ 0xE0001000) (0004ms, 0439ms total)
T2610 000:628 JLINK_IsHalted() -- CPU_ReadMem(2 bytes @ 0x20000000)  returns TRUE (0004ms, 0443ms total)
T2610 000:632 JLINK_ReadReg(R15 (PC))  returns 0x20000000 (0000ms, 0439ms total)
T2610 000:632 JLINK_ClrBPEx(BPHandle = 0x00000010)  returns 0x00 (0000ms, 0439ms total)
T2610 000:632 JLINK_ReadReg(R0)  returns 0x00000001 (0000ms, 0439ms total)
T2610 000:632 JLINK_WriteReg(R0, 0x00000E00)  returns 0x00 (0000ms, 0439ms total)
T2610 000:632 JLINK_WriteReg(R1, 0x00000200)  returns 0x00 (0000ms, 0439ms total)
T2610 000:632 JLINK_WriteReg(R2, 0x000000FF)  returns 0x00 (0000ms, 0439ms total)
T2610 000:632 JLINK_WriteReg(R3, 0x00000000)  returns 0x00 (0000ms, 0439ms total)
T2610 000:632 JLINK_WriteReg(R4, 0x00000000)  returns 0x00 (0000ms, 0439ms total)
T2610 000:632 JLINK_WriteReg(R5, 0x00000000)  returns 0x00 (0000ms, 0439ms total)
T2610 000:632 JLINK_WriteReg(R6, 0x00000000)  returns 0x00 (0000ms, 0439ms total)
T2610 000:632 JLINK_WriteReg(R7, 0x00000000)  returns 0x00 (0000ms, 0439ms total)
T2610 000:632 JLINK_WriteReg(R8, 0x00000000)  returns 0x00 (0000ms, 0439ms total)
T2610 000:632 JLINK_WriteReg(R9, 0x20000220)  returns 0x00 (0000ms, 0439ms total)
T2610 000:632 JLINK_WriteReg(R10, 0x00000000)  returns 0x00 (0000ms, 0439ms total)
T2610 000:632 JLINK_WriteReg(R11, 0x00000000)  returns 0x00 (0000ms, 0439ms total)
T2610 000:632 JLINK_WriteReg(R12, 0x00000000)  returns 0x00 (0000ms, 0439ms total)
T2610 000:632 JLINK_WriteReg(R13 (SP), 0x20001000)  returns 0x00 (0000ms, 0439ms total)
T2610 000:632 JLINK_WriteReg(R14, 0x20000001)  returns 0x00 (0000ms, 0439ms total)
T2610 000:632 JLINK_WriteReg(R15 (PC), 0x200000DC)  returns 0x00 (0000ms, 0439ms total)
T2610 000:632 JLINK_WriteReg(XPSR, 0x01000000)  returns 0x00 (0000ms, 0439ms total)
T2610 000:632 JLINK_WriteReg(MSP, 0x20001000)  returns 0x00 (0001ms, 0440ms total)
T2610 000:633 JLINK_WriteReg(PSP, 0x20001000)  returns 0x00 (0000ms, 0440ms total)
T2610 000:633 JLINK_WriteReg(CFBP, 0x00000000)  returns 0x00 (0000ms, 0440ms total)
T2610 000:633 JLINK_SetBPEx(Addr = 0x20000000, Type = 0xFFFFFFF2)  returns 0x00000011 (0000ms, 0440ms total)
T2610 000:633 JLINK_Go() -- CPU_ReadMem(4 bytes @ 0xE0001000) -- CPU_WriteMem(4 bytes @ 0xE0001000) (0003ms, 0443ms total)
T2610 000:636 JLINK_IsHalted()  returns FALSE (0001ms, 0444ms total)
T2610 000:638 JLINK_IsHalted() -- CPU_ReadMem(2 bytes @ 0x20000000)  returns TRUE (0003ms, 0446ms total)
T2610 000:641 JLINK_ReadReg(R15 (PC))  returns 0x20000000 (0000ms, 0443ms total)
T2610 000:641 JLINK_ClrBPEx(BPHandle = 0x00000011)  returns 0x00 (0000ms, 0443ms total)
T2610 000:641 JLINK_ReadReg(R0)  returns 0x00000000 (0000ms, 0443ms total)
T2610 000:641 JLINK_WriteReg(R0, 0x00001000)  returns 0x00 (0000ms, 0443ms total)
T2610 000:641 JLINK_WriteReg(R1, 0x00000200)  returns 0x00 (0000ms, 0443ms total)
T2610 000:641 JLINK_WriteReg(R2, 0x000000FF)  returns 0x00 (0000ms, 0443ms total)
T2610 000:641 JLINK_WriteReg(R3, 0x00000000)  returns 0x00 (0000ms, 0443ms total)
T2610 000:641 JLINK_WriteReg(R4, 0x00000000)  returns 0x00 (0000ms, 0443ms total)
T2610 000:641 JLINK_WriteReg(R5, 0x00000000)  returns 0x00 (0000ms, 0443ms total)
T2610 000:641 JLINK_WriteReg(R6, 0x00000000)  returns 0x00 (0000ms, 0443ms total)
T2610 000:641 JLINK_WriteReg(R7, 0x00000000)  returns 0x00 (0001ms, 0444ms total)
T2610 000:642 JLINK_WriteReg(R8, 0x00000000)  returns 0x00 (0000ms, 0444ms total)
T2610 000:642 JLINK_WriteReg(R9, 0x20000220)  returns 0x00 (0000ms, 0444ms total)
T2610 000:642 JLINK_WriteReg(R10, 0x00000000)  returns 0x00 (0000ms, 0444ms total)
T2610 000:642 JLINK_WriteReg(R11, 0x00000000)  returns 0x00 (0000ms, 0444ms total)
T2610 000:642 JLINK_WriteReg(R12, 0x00000000)  returns 0x00 (0000ms, 0444ms total)
T2610 000:642 JLINK_WriteReg(R13 (SP), 0x20001000)  returns 0x00 (0000ms, 0444ms total)
T2610 000:642 JLINK_WriteReg(R14, 0x20000001)  returns 0x00 (0000ms, 0444ms total)
T2610 000:642 JLINK_WriteReg(R15 (PC), 0x20000020)  returns 0x00 (0000ms, 0444ms total)
T2610 000:642 JLINK_WriteReg(XPSR, 0x01000000)  returns 0x00 (0000ms, 0444ms total)
T2610 000:642 JLINK_WriteReg(MSP, 0x20001000)  returns 0x00 (0000ms, 0444ms total)
T2610 000:642 JLINK_WriteReg(PSP, 0x20001000)  returns 0x00 (0000ms, 0444ms total)
T2610 000:642 JLINK_WriteReg(CFBP, 0x00000000)  returns 0x00 (0000ms, 0444ms total)
T2610 000:642 JLINK_SetBPEx(Addr = 0x20000000, Type = 0xFFFFFFF2)  returns 0x00000012 (0000ms, 0444ms total)
T2610 000:642 JLINK_Go() -- CPU_ReadMem(4 bytes @ 0xE0001000) -- CPU_WriteMem(4 bytes @ 0xE0001000) (0004ms, 0448ms total)
T2610 000:646 JLINK_IsHalted() -- CPU_ReadMem(2 bytes @ 0x20000000)  returns TRUE (0004ms, 0452ms total)
T2610 000:650 JLINK_ReadReg(R15 (PC))  returns 0x20000000 (0000ms, 0448ms total)
T2610 000:650 JLINK_ClrBPEx(BPHandle = 0x00000012)  returns 0x00 (0000ms, 0448ms total)
T2610 000:650 JLINK_ReadReg(R0)  returns 0x00000001 (0000ms, 0448ms total)
T2610 000:650 JLINK_WriteReg(R0, 0x00001000)  returns 0x00 (0000ms, 0448ms total)
T2610 000:650 JLINK_WriteReg(R1, 0x00000200)  returns 0x00 (0000ms, 0448ms total)
T2610 000:650 JLINK_WriteReg(R2, 0x000000FF)  returns 0x00 (0000ms, 0448ms total)
T2610 000:650 JLINK_WriteReg(R3, 0x00000000)  returns 0x00 (0000ms, 0448ms total)
T2610 000:650 JLINK_WriteReg(R4, 0x00000000)  returns 0x00 (0000ms, 0448ms total)
T2610 000:650 JLINK_WriteReg(R5, 0x00000000)  returns 0x00 (0000ms, 0448ms total)
T2610 000:650 JLINK_WriteReg(R6, 0x00000000)  returns 0x00 (0000ms, 0448ms total)
T2610 000:650 JLINK_WriteReg(R7, 0x00000000)  returns 0x00 (0000ms, 0448ms total)
T2610 000:650 JLINK_WriteReg(R8, 0x00000000)  returns 0x00 (0000ms, 0448ms total)
T2610 000:650 JLINK_WriteReg(R9, 0x20000220)  returns 0x00 (0000ms, 0448ms total)
T2610 000:650 JLINK_WriteReg(R10, 0x00000000)  returns 0x00 (0000ms, 0448ms total)
T2610 000:650 JLINK_WriteReg(R11, 0x00000000)  returns 0x00 (0000ms, 0448ms total)
T2610 000:650 JLINK_WriteReg(R12, 0x00000000)  returns 0x00 (0000ms, 0448ms total)
T2610 000:650 JLINK_WriteReg(R13 (SP), 0x20001000)  returns 0x00 (0000ms, 0448ms total)
T2610 000:650 JLINK_WriteReg(R14, 0x20000001)  returns 0x00 (0001ms, 0449ms total)
T2610 000:651 JLINK_WriteReg(R15 (PC), 0x200000DC)  returns 0x00 (0000ms, 0449ms total)
T2610 000:651 JLINK_WriteReg(XPSR, 0x01000000)  returns 0x00 (0000ms, 0449ms total)
